T0AF4 13406:096 SEGGER J-Link V4.98e Log File (0001ms, 83822ms total)
T0AF4 13406:096 DLL Compiled: May  5 2015 11:00:52 (0001ms, 83822ms total)
T0AF4 13406:096 Logging started @ 2016-06-02 22:43 (0001ms, 83822ms total)
T0AF4 13406:118 JLINK_ExecCommand("Device = AT91SAM4SD32C", ...)Device "ATSAM4SD32C" selected.  returns 0x00 (0000ms, 83822ms total)
T0AF4 13406:378 JLINK_ExecCommand("ProjectFile = T:\11.02741-0\Entregas\Aula10\14-ADC\14-ADC\jlink.config", ...)  returns 0x00 (0000ms, 83822ms total)
T0AF4 13406:388 JLINK_ExecCommand("Device = AT91SAM4SD32C", ...)Device "ATSAM4SD32C" selected.  returns 0x00 (0001ms, 83823ms total)
T0AF4 13406:389 JLINK_TIF_Select(JLINKARM_TIF_JTAG)  returns 0x00 (0003ms, 83826ms total)
T0AF4 13406:392 JLINK_GetIdData(...) >0x2F8 JTAG>TotalIRLen = 4, IRPrint = 0x01 >0x30 JTAG> >0x210 JTAG> >0x70 JTAG> >0x40 JTAG> >0x40 JTAG> >0x40 JTAG> >0x48 JTAG> >0x78 JTAG> >0x40 JTAG> >0x30 JTAG> >0x40 JTAG> >0x40 JTAG> >0x30 JTAG> >0x40 JTAG> >0x48 JTAG>Found Cortex-M4 r0p1, Little endian. -- CPU_WriteMem(4 bytes @ 0xE0002000) -- CPU_ReadMem(4 bytes @ 0xE000EDF0) -- CPU_ReadMem(4 bytes @ 0xE0002000)FPUnit: 6 code (BP) slots and 2 literal slots -- CPU_ReadMem(4 bytes @ 0xE000EDFC)
 -- CPU_ReadMem(4 bytes @ 0xE0001000) -- CPU_WriteMem(4 bytes @ 0xE0001000) -- CPU_ReadMem(4 bytes @ 0xE000ED88) -- CPU_WriteMem(4 bytes @ 0xE000ED88) -- CPU_ReadMem(4 bytes @ 0xE000ED88) -- CPU_WriteMem(4 bytes @ 0xE000ED88)CoreSight components:ROMTbl 0 @ E00FF000 -- CPU_ReadMem(16 bytes @ 0xE00FF000) -- CPU_ReadMem(16 bytes @ 0xE000EFF0) -- CPU_ReadMem(16 bytes @ 0xE000EFE0)ROMTbl 0 [0]: FFF0F000, CID: B105E00D, PID: 000BB000 SCS -- CPU_ReadMem(16 bytes @ 0xE0001FF0)
 -- CPU_ReadMem(16 bytes @ 0xE0001FE0)ROMTbl 0 [1]: FFF02000, CID: B105E00D, PID: 003BB002 DWT -- CPU_ReadMem(16 bytes @ 0xE0002FF0) -- CPU_ReadMem(16 bytes @ 0xE0002FE0)ROMTbl 0 [2]: FFF03000, CID: B105E00D, PID: 002BB003 FPB -- CPU_ReadMem(16 bytes @ 0xE0000FF0) -- CPU_ReadMem(16 bytes @ 0xE0000FE0)ROMTbl 0 [3]: FFF01000, CID: B105E00D, PID: 003BB001 ITM -- CPU_ReadMem(16 bytes @ 0xE00FF010) -- CPU_ReadMem(16 bytes @ 0xE0040FF0) -- CPU_ReadMem(16 bytes @ 0xE0040FE0)
ROMTbl 0 [4]: FFF41000, CID: B105900D, PID: 000BB9A1 TPIU ScanLen=4 NumDevices=1 aId[0]=0x4BA00477 aIrRead[0]=0 aScanLen[0]=0 aScanRead[0]=0 (0041ms, 83867ms total)
T0AF4 13406:433 JLINK_ConfigJTAG(IRPre = 0, DRPre = 0) (0000ms, 83867ms total)
T0AF4 13406:433 JLINK_SetSpeed(1000) (0000ms, 83867ms total)
T0AF4 13406:433 JLINK_ResetPullsRESET(OFF) (0000ms, 83867ms total)
T0AF4 13406:433 JLINK_Connect() >0x2F8 JTAG>TotalIRLen = 4, IRPrint = 0x01 >0x30 JTAG> >0x210 JTAG> >0x70 JTAG> >0x40 JTAG> >0x40 JTAG> >0x40 JTAG> >0x48 JTAG> >0x78 JTAG> >0x40 JTAG> >0x30 JTAG> >0x40 JTAG> >0x40 JTAG> >0x30 JTAG> >0x40 JTAG> >0x48 JTAG>Found Cortex-M4 r0p1, Little endian. -- CPU_WriteMem(4 bytes @ 0xE0002000) -- CPU_ReadMem(4 bytes @ 0xE000EDF0) -- CPU_ReadMem(4 bytes @ 0xE0002000)FPUnit: 6 code (BP) slots and 2 literal slots -- CPU_ReadMem(4 bytes @ 0xE000EDFC)
 -- CPU_ReadMem(4 bytes @ 0xE0001000) -- CPU_WriteMem(4 bytes @ 0xE0001000) -- CPU_ReadMem(4 bytes @ 0xE000ED88) -- CPU_WriteMem(4 bytes @ 0xE000ED88) -- CPU_ReadMem(4 bytes @ 0xE000ED88) -- CPU_WriteMem(4 bytes @ 0xE000ED88)CoreSight components:ROMTbl 0 @ E00FF000 -- CPU_ReadMem(16 bytes @ 0xE00FF000) -- CPU_ReadMem(16 bytes @ 0xE000EFF0) -- CPU_ReadMem(16 bytes @ 0xE000EFE0)ROMTbl 0 [0]: FFF0F000, CID: B105E00D, PID: 000BB000 SCS -- CPU_ReadMem(16 bytes @ 0xE0001FF0)
 -- CPU_ReadMem(16 bytes @ 0xE0001FE0)ROMTbl 0 [1]: FFF02000, CID: B105E00D, PID: 003BB002 DWT -- CPU_ReadMem(16 bytes @ 0xE0002FF0) -- CPU_ReadMem(16 bytes @ 0xE0002FE0)ROMTbl 0 [2]: FFF03000, CID: B105E00D, PID: 002BB003 FPB -- CPU_ReadMem(16 bytes @ 0xE0000FF0) -- CPU_ReadMem(16 bytes @ 0xE0000FE0)ROMTbl 0 [3]: FFF01000, CID: B105E00D, PID: 003BB001 ITM -- CPU_ReadMem(16 bytes @ 0xE00FF010) -- CPU_ReadMem(16 bytes @ 0xE0040FF0) -- CPU_ReadMem(16 bytes @ 0xE0040FE0)
ROMTbl 0 [4]: FFF41000, CID: B105900D, PID: 000BB9A1 TPIU  returns 0x00 (0039ms, 83906ms total)
T0AF4 13406:472 JLINK_GetDebugInfo(0x100) -- Value=0xE00FF003  returns 0x00 (0001ms, 83907ms total)
T0AF4 13406:473 JLINK_ReadMem (0xE00FFFF0, 0x0010 Bytes, ...) -- CPU is running -- CPU_ReadMem(16 bytes @ 0xE00FFFF0) - Data: 0D 00 00 00 10 00 00 00 05 00 00 00 B1 00 00 00  returns 0x00 (0001ms, 83908ms total)
T0AF4 13406:474 JLINK_ReadMem (0xE00FFFD0, 0x0020 Bytes, ...) -- CPU is running -- CPU_ReadMem(32 bytes @ 0xE00FFFD0) - Data: 04 00 00 00 00 00 00 00 00 00 00 00 00 00 00 00 ...  returns 0x00 (0002ms, 83910ms total)
T0AF4 13406:476 JLINK_ReadMemU32(0xE00FF000, 0x0001 Items, ...) -- CPU is running -- CPU_ReadMem(4 bytes @ 0xE00FF000) - Data: 03 F0 F0 FF  returns 0x01 (0001ms, 83911ms total)
T0AF4 13406:477 JLINK_ReadMem (0xE000EFF0, 0x0010 Bytes, ...) -- CPU is running -- CPU_ReadMem(16 bytes @ 0xE000EFF0) - Data: 0D 00 00 00 E0 00 00 00 05 00 00 00 B1 00 00 00  returns 0x00 (0001ms, 83912ms total)
T0AF4 13406:478 JLINK_ReadMem (0xE000EFD0, 0x0020 Bytes, ...) -- CPU is running -- CPU_ReadMem(32 bytes @ 0xE000EFD0) - Data: 04 00 00 00 00 00 00 00 00 00 00 00 00 00 00 00 ...  returns 0x00 (0002ms, 83914ms total)
T0AF4 13406:480 JLINK_ReadMemU32(0xE00FF004, 0x0001 Items, ...) -- CPU is running -- CPU_ReadMem(4 bytes @ 0xE00FF004) - Data: 03 20 F0 FF  returns 0x01 (0001ms, 83915ms total)
T0AF4 13406:481 JLINK_ReadMem (0xE0001FF0, 0x0010 Bytes, ...) -- CPU is running -- CPU_ReadMem(16 bytes @ 0xE0001FF0) - Data: 0D 00 00 00 E0 00 00 00 05 00 00 00 B1 00 00 00  returns 0x00 (0001ms, 83916ms total)
T0AF4 13406:482 JLINK_ReadMem (0xE0001FD0, 0x0020 Bytes, ...) -- CPU is running -- CPU_ReadMem(32 bytes @ 0xE0001FD0) - Data: 04 00 00 00 00 00 00 00 00 00 00 00 00 00 00 00 ...  returns 0x00 (0002ms, 83918ms total)
T0AF4 13406:484 JLINK_ReadMemU32(0xE00FF008, 0x0001 Items, ...) -- CPU is running -- CPU_ReadMem(4 bytes @ 0xE00FF008) - Data: 03 30 F0 FF  returns 0x01 (0001ms, 83919ms total)
T0AF4 13406:485 JLINK_ReadMem (0xE0002FF0, 0x0010 Bytes, ...) -- CPU is running -- CPU_ReadMem(16 bytes @ 0xE0002FF0) - Data: 0D 00 00 00 E0 00 00 00 05 00 00 00 B1 00 00 00  returns 0x00 (0001ms, 83920ms total)
T0AF4 13406:486 JLINK_ReadMem (0xE0002FD0, 0x0020 Bytes, ...) -- CPU is running -- CPU_ReadMem(32 bytes @ 0xE0002FD0) - Data: 04 00 00 00 00 00 00 00 00 00 00 00 00 00 00 00 ...  returns 0x00 (0002ms, 83922ms total)
T0AF4 13406:488 JLINK_ReadMemU32(0xE00FF00C, 0x0001 Items, ...) -- CPU is running -- CPU_ReadMem(4 bytes @ 0xE00FF00C) - Data: 03 10 F0 FF  returns 0x01 (0001ms, 83923ms total)
T0AF4 13406:489 JLINK_ReadMem (0xE0000FF0, 0x0010 Bytes, ...) -- CPU is running -- CPU_ReadMem(16 bytes @ 0xE0000FF0) - Data: 0D 00 00 00 E0 00 00 00 05 00 00 00 B1 00 00 00  returns 0x00 (0001ms, 83924ms total)
T0AF4 13406:490 JLINK_ReadMem (0xE0000FD0, 0x0020 Bytes, ...) -- CPU is running -- CPU_ReadMem(32 bytes @ 0xE0000FD0) - Data: 04 00 00 00 00 00 00 00 00 00 00 00 00 00 00 00 ...  returns 0x00 (0002ms, 83926ms total)
T0AF4 13406:492 JLINK_ReadMemU32(0xE00FF010, 0x0001 Items, ...) -- CPU is running -- CPU_ReadMem(4 bytes @ 0xE00FF010) - Data: 03 10 F4 FF  returns 0x01 (0001ms, 83927ms total)
T0AF4 13406:493 JLINK_ReadMem (0xE0040FF0, 0x0010 Bytes, ...) -- CPU is running -- CPU_ReadMem(16 bytes @ 0xE0040FF0) - Data: 0D 00 00 00 90 00 00 00 05 00 00 00 B1 00 00 00  returns 0x00 (0002ms, 83929ms total)
T0AF4 13406:495 JLINK_ReadMem (0xE0040FD0, 0x0020 Bytes, ...) -- CPU is running -- CPU_ReadMem(32 bytes @ 0xE0040FD0) - Data: 04 00 00 00 00 00 00 00 00 00 00 00 00 00 00 00 ...  returns 0x00 (0001ms, 83930ms total)
T0AF4 13406:496 JLINK_ReadMemU32(0xE00FF014, 0x0001 Items, ...) -- CPU is running -- CPU_ReadMem(4 bytes @ 0xE00FF014) - Data: 02 20 F4 FF  returns 0x01 (0002ms, 83932ms total)
T0AF4 13406:498 JLINK_ReadMemU32(0xE00FF018, 0x0001 Items, ...) -- CPU is running -- CPU_ReadMem(4 bytes @ 0xE00FF018) - Data: 00 00 00 00  returns 0x01 (0001ms, 83933ms total)
T0AF4 13406:499 JLINK_ReadMem (0xE0001000, 0x0004 Bytes, ...) -- CPU is running -- CPU_ReadMem(4 bytes @ 0xE0001000) - Data: 01 00 00 40  returns 0x00 (0001ms, 83934ms total)
T0AF4 13406:500 JLINK_ReadMem (0xE0001000, 0x0004 Bytes, ...) -- CPU is running -- CPU_ReadMem(4 bytes @ 0xE0001000) - Data: 01 00 00 40  returns 0x00 (0001ms, 83935ms total)
T0AF4 13406:501 JLINK_ReadMem (0xE0001028, 0x0004 Bytes, ...) -- CPU is running -- CPU_ReadMem(4 bytes @ 0xE0001028) - Data: 00 00 00 00  returns 0x00 (0001ms, 83936ms total)
T0AF4 13406:502 JLINK_WriteMem(0xE0001028, 0x0004 Bytes, ...) - Data: 00 01 00 00 -- CPU is running -- CPU_WriteMem(4 bytes @ 0xE0001028)  returns 0x04 (0001ms, 83937ms total)
T0AF4 13406:503 JLINK_ReadMem (0xE0001028, 0x0004 Bytes, ...) -- CPU is running -- CPU_ReadMem(4 bytes @ 0xE0001028) - Data: 00 00 00 00  returns 0x00 (0001ms, 83938ms total)
T0AF4 13406:504 JLINK_ReadMem (0xE0001038, 0x0004 Bytes, ...) -- CPU is running -- CPU_ReadMem(4 bytes @ 0xE0001038) - Data: 00 02 00 00  returns 0x00 (0001ms, 83939ms total)
T0AF4 13406:505 JLINK_WriteMem(0xE0001038, 0x0004 Bytes, ...) - Data: 00 03 00 00 -- CPU is running -- CPU_WriteMem(4 bytes @ 0xE0001038)  returns 0x04 (0001ms, 83940ms total)
T0AF4 13406:506 JLINK_ReadMem (0xE0001038, 0x0004 Bytes, ...) -- CPU is running -- CPU_ReadMem(4 bytes @ 0xE0001038) - Data: 00 03 00 00  returns 0x00 (0001ms, 83941ms total)
T0AF4 13406:507 JLINK_ReadMem (0xE0001048, 0x0004 Bytes, ...) -- CPU is running -- CPU_ReadMem(4 bytes @ 0xE0001048) - Data: 00 00 00 00  returns 0x00 (0001ms, 83942ms total)
T0AF4 13406:508 JLINK_WriteMem(0xE0001048, 0x0004 Bytes, ...) - Data: 00 01 00 00 -- CPU is running -- CPU_WriteMem(4 bytes @ 0xE0001048)  returns 0x04 (0001ms, 83943ms total)
T0AF4 13406:509 JLINK_ReadMem (0xE0001048, 0x0004 Bytes, ...) -- CPU is running -- CPU_ReadMem(4 bytes @ 0xE0001048) - Data: 00 00 00 00  returns 0x00 (0001ms, 83944ms total)
T0AF4 13406:510 JLINK_ReadMem (0xE0001058, 0x0004 Bytes, ...) -- CPU is running -- CPU_ReadMem(4 bytes @ 0xE0001058) - Data: 00 00 00 00  returns 0x00 (0001ms, 83945ms total)
T0AF4 13406:511 JLINK_WriteMem(0xE0001058, 0x0004 Bytes, ...) - Data: 00 01 00 00 -- CPU is running -- CPU_WriteMem(4 bytes @ 0xE0001058)  returns 0x04 (0001ms, 83946ms total)
T0AF4 13406:512 JLINK_ReadMem (0xE0001058, 0x0004 Bytes, ...) -- CPU is running -- CPU_ReadMem(4 bytes @ 0xE0001058) - Data: 00 00 00 00  returns 0x00 (0001ms, 83947ms total)
T0AF4 13406:513 JLINK_ReadMem (0xE0001024, 0x0004 Bytes, ...) -- CPU is running -- CPU_ReadMem(4 bytes @ 0xE0001024) - Data: 00 00 00 00  returns 0x00 (0001ms, 83948ms total)
T0AF4 13406:514 JLINK_WriteMem(0xE0001024, 0x0004 Bytes, ...) - Data: 1F 00 00 00 -- CPU is running -- CPU_WriteMem(4 bytes @ 0xE0001024)  returns 0x04 (0001ms, 83949ms total)
T0AF4 13406:515 JLINK_ReadMem (0xE0001024, 0x0004 Bytes, ...) -- CPU is running -- CPU_ReadMem(4 bytes @ 0xE0001024) - Data: 0F 00 00 00  returns 0x00 (0001ms, 83950ms total)
T0AF4 13406:516 JLINK_ReadMem (0xE0001034, 0x0004 Bytes, ...) -- CPU is running -- CPU_ReadMem(4 bytes @ 0xE0001034) - Data: 00 00 00 00  returns 0x00 (0001ms, 83951ms total)
T0AF4 13406:517 JLINK_WriteMem(0xE0001034, 0x0004 Bytes, ...) - Data: 1F 00 00 00 -- CPU is running -- CPU_WriteMem(4 bytes @ 0xE0001034)  returns 0x04 (0001ms, 83952ms total)
T0AF4 13406:518 JLINK_ReadMem (0xE0001034, 0x0004 Bytes, ...) -- CPU is running -- CPU_ReadMem(4 bytes @ 0xE0001034) - Data: 0F 00 00 00  returns 0x00 (0001ms, 83953ms total)
T0AF4 13406:519 JLINK_ReadMem (0xE0001044, 0x0004 Bytes, ...) -- CPU is running -- CPU_ReadMem(4 bytes @ 0xE0001044) - Data: 00 00 00 00  returns 0x00 (0001ms, 83954ms total)
T0AF4 13406:520 JLINK_WriteMem(0xE0001044, 0x0004 Bytes, ...) - Data: 1F 00 00 00 -- CPU is running -- CPU_WriteMem(4 bytes @ 0xE0001044)  returns 0x04 (0001ms, 83955ms total)
T0AF4 13406:521 JLINK_ReadMem (0xE0001044, 0x0004 Bytes, ...) -- CPU is running -- CPU_ReadMem(4 bytes @ 0xE0001044) - Data: 0F 00 00 00  returns 0x00 (0001ms, 83956ms total)
T0AF4 13406:522 JLINK_ReadMem (0xE0001054, 0x0004 Bytes, ...) -- CPU is running -- CPU_ReadMem(4 bytes @ 0xE0001054) - Data: 00 00 00 00  returns 0x00 (0001ms, 83957ms total)
T0AF4 13406:523 JLINK_WriteMem(0xE0001054, 0x0004 Bytes, ...) - Data: 1F 00 00 00 -- CPU is running -- CPU_WriteMem(4 bytes @ 0xE0001054)  returns 0x04 (0001ms, 83958ms total)
T0AF4 13406:524 JLINK_ReadMem (0xE0001054, 0x0004 Bytes, ...) -- CPU is running -- CPU_ReadMem(4 bytes @ 0xE0001054) - Data: 0F 00 00 00  returns 0x00 (0001ms, 83959ms total)
T0AF4 13406:525 JLINK_ReadMem (0xE0001028, 0x0004 Bytes, ...) -- CPU is running -- CPU_ReadMem(4 bytes @ 0xE0001028) - Data: 00 00 00 00  returns 0x00 (0001ms, 83960ms total)
T0AF4 13406:526 JLINK_ReadMem (0xE0001038, 0x0004 Bytes, ...) -- CPU is running -- CPU_ReadMem(4 bytes @ 0xE0001038) - Data: 00 03 00 00  returns 0x00 (0001ms, 83961ms total)
T0AF4 13406:527 JLINK_ReadMem (0xE0001048, 0x0004 Bytes, ...) -- CPU is running -- CPU_ReadMem(4 bytes @ 0xE0001048) - Data: 00 00 00 00  returns 0x00 (0001ms, 83962ms total)
T0AF4 13406:528 JLINK_ReadMem (0xE0001058, 0x0004 Bytes, ...) -- CPU is running -- CPU_ReadMem(4 bytes @ 0xE0001058) - Data: 00 00 00 00  returns 0x00 (0001ms, 83963ms total)
T0AF4 13406:529 JLINK_WriteMem(0xE0001020, 0x0004 Bytes, ...) - Data: 00 00 00 00 -- CPU is running -- CPU_WriteMem(4 bytes @ 0xE0001020)  returns 0x04 (0001ms, 83964ms total)
T0AF4 13406:530 JLINK_WriteMem(0xE0001024, 0x0004 Bytes, ...) - Data: 00 00 00 00 -- CPU is running -- CPU_WriteMem(4 bytes @ 0xE0001024)  returns 0x04 (0001ms, 83965ms total)
T0AF4 13406:531 JLINK_WriteMem(0xE0001028, 0x0004 Bytes, ...) - Data: 00 00 00 00 -- CPU is running -- CPU_WriteMem(4 bytes @ 0xE0001028)  returns 0x04 (0000ms, 83965ms total)
T0AF4 13406:531 JLINK_WriteMem(0xE0001030, 0x0004 Bytes, ...) - Data: 00 00 00 00 -- CPU is running -- CPU_WriteMem(4 bytes @ 0xE0001030)  returns 0x04 (0001ms, 83966ms total)
T0AF4 13406:532 JLINK_WriteMem(0xE0001034, 0x0004 Bytes, ...) - Data: 00 00 00 00 -- CPU is running -- CPU_WriteMem(4 bytes @ 0xE0001034)  returns 0x04 (0001ms, 83967ms total)
T0AF4 13406:533 JLINK_WriteMem(0xE0001038, 0x0004 Bytes, ...) - Data: 00 00 00 00 -- CPU is running -- CPU_WriteMem(4 bytes @ 0xE0001038)  returns 0x04 (0001ms, 83968ms total)
T0AF4 13406:534 JLINK_WriteMem(0xE0001040, 0x0004 Bytes, ...) - Data: 00 00 00 00 -- CPU is running -- CPU_WriteMem(4 bytes @ 0xE0001040)  returns 0x04 (0001ms, 83969ms total)
T0AF4 13406:535 JLINK_WriteMem(0xE0001044, 0x0004 Bytes, ...) - Data: 00 00 00 00 -- CPU is running -- CPU_WriteMem(4 bytes @ 0xE0001044)  returns 0x04 (0001ms, 83970ms total)
T0AF4 13406:536 JLINK_WriteMem(0xE0001048, 0x0004 Bytes, ...) - Data: 00 00 00 00 -- CPU is running -- CPU_WriteMem(4 bytes @ 0xE0001048)  returns 0x04 (0001ms, 83971ms total)
T0AF4 13406:537 JLINK_WriteMem(0xE0001050, 0x0004 Bytes, ...) - Data: 00 00 00 00 -- CPU is running -- CPU_WriteMem(4 bytes @ 0xE0001050)  returns 0x04 (0001ms, 83972ms total)
T0AF4 13406:538 JLINK_WriteMem(0xE0001054, 0x0004 Bytes, ...) - Data: 00 00 00 00 -- CPU is running -- CPU_WriteMem(4 bytes @ 0xE0001054)  returns 0x04 (0001ms, 83973ms total)
T0AF4 13406:539 JLINK_WriteMem(0xE0001058, 0x0004 Bytes, ...) - Data: 00 00 00 00 -- CPU is running -- CPU_WriteMem(4 bytes @ 0xE0001058)  returns 0x04 (0000ms, 83973ms total)
T0AF4 13406:539 JLINK_Halt()  returns 0x00 (0009ms, 83982ms total)
T0AF4 13406:548 JLINK_WriteMem(0x400E0A04, 0x0004 Bytes, ...) - Data: 0B 01 00 5A -- CPU_WriteMem(4 bytes @ 0x400E0A04)  returns 0x04 (0001ms, 83983ms total)
T0AF4 13406:549 JLINK_ReadMem (0x400E0A08, 0x0004 Bytes, ...) -- CPU_ReadMem(4 bytes @ 0x400E0A08) - Data: 01 00 00 00  returns 0x00 (0001ms, 83984ms total)
T0AF4 13406:550 JLINK_WriteMem(0x400E0A04, 0x0004 Bytes, ...) - Data: 0C 02 00 5A -- CPU_WriteMem(4 bytes @ 0x400E0A04)  returns 0x04 (0001ms, 83985ms total)
T0AF4 13406:551 JLINK_ReadMem (0x400E0A08, 0x0004 Bytes, ...) -- CPU_ReadMem(4 bytes @ 0x400E0A08) - Data: 01 00 00 00  returns 0x00 (0001ms, 83986ms total)
T0AF4 13406:552 JLINK_Reset() -- CPU_ReadMem(16 bytes @ 0x20000000) -- CPU_WriteMem(16 bytes @ 0x20000000) -- CPU_ReadMem(4 bytes @ 0xE000EDFC) -- CPU_WriteMem(4 bytes @ 0xE000EDFC) -- CPU_ReadMem(4 bytes @ 0xE0001000) -- CPU_WriteMem(4 bytes @ 0xE000EDFC) -- CPU_WriteMem(16 bytes @ 0x20000000) -- CPU_WriteMem(4 bytes @ 0xE0002000) -- CPU_ReadMem(4 bytes @ 0xE000EDFC) -- CPU_ReadMem(4 bytes @ 0xE0001000) (0037ms, 84023ms total)
T0AF4 13406:591 JLINK_JTAG_GetDeviceID(DeviceIndex = 0)  returns 0x4BA00477 (0000ms, 84023ms total)
T0AF4 13406:591 JLINK_ReadMemU32(0x400E0740, 0x0001 Items, ...) -- CPU_ReadMem(4 bytes @ 0x400E0740) - Data: E0 0E A7 29  returns 0x01 (0001ms, 84024ms total)
T0AF4 13406:592 JLINK_ReadMemU32(0x400E0744, 0x0001 Items, ...) -- CPU_ReadMem(4 bytes @ 0x400E0744) - Data: 00 00 00 00  returns 0x01 (0001ms, 84025ms total)
T0AF4 13406:593 JLINK_WriteMem(0x400E0A04, 0x0004 Bytes, ...) - Data: 05 00 00 5A -- CPU_WriteMem(4 bytes @ 0x400E0A04)  returns 0x04 (0001ms, 84026ms total)
T0AF4 13406:594 JLINK_WriteMem(0x400E0C04, 0x0004 Bytes, ...) - Data: 05 00 00 5A -- CPU_WriteMem(4 bytes @ 0x400E0C04)  returns 0x04 (0001ms, 84027ms total)
T0AF4 13406:595 JLINK_ReadMem (0x400E0A08, 0x0004 Bytes, ...) -- CPU_ReadMem(4 bytes @ 0x400E0A08) - Data: 00 00 00 00  returns 0x00 (0001ms, 84028ms total)
T0AF4 13406:597 JLINK_ReadMem (0x400E0A08, 0x0004 Bytes, ...) -- CPU_ReadMem(4 bytes @ 0x400E0A08) - Data: 00 00 00 00  returns 0x00 (0000ms, 84028ms total)
T2310 13406:601 JLINK_IsHalted()  returns TRUE (0000ms, 84028ms total)
T0AF4 13406:601 JLINK_ReadMem (0x400E0A08, 0x0004 Bytes, ...) -- CPU_ReadMem(4 bytes @ 0x400E0A08) - Data: 00 00 00 00  returns 0x00 (0001ms, 84029ms total)
T2310 13406:602 JLINK_GetMOEs(...) -- CPU_ReadMem(4 bytes @ 0xE000ED30) -- CPU_WriteMem(4 bytes @ 0xE000ED30)  returns 0x01 (0001ms, 84030ms total)
T2310 13406:603 JLINK_ReadReg(R15 (PC))  returns 0x00402230 (0000ms, 84030ms total)
T0AF4 13406:618 JLINK_ReadMem (0x400E0A08, 0x0004 Bytes, ...) -- CPU_ReadMem(4 bytes @ 0x400E0A08) - Data: 00 00 00 00  returns 0x00 (0001ms, 84032ms total)
T0AF4 13406:684 JLINK_ReadMem (0x400E0A08, 0x0004 Bytes, ...) -- CPU_ReadMem(4 bytes @ 0x400E0A08) - Data: 00 00 00 00  returns 0x00 (0001ms, 84033ms total)
T2310 13406:805 JLINK_IsHalted()  returns TRUE (0000ms, 84033ms total)
T0AF4 13406:941 JLINK_ReadMem (0x400E0A08, 0x0004 Bytes, ...) -- CPU_ReadMem(4 bytes @ 0x400E0A08) - Data: 00 00 00 00  returns 0x00 (0001ms, 84034ms total)
T2310 13407:005 JLINK_IsHalted()  returns TRUE (0000ms, 84034ms total)
T2310 13407:205 JLINK_IsHalted()  returns TRUE (0001ms, 84035ms total)
T2310 13407:406 JLINK_IsHalted()  returns TRUE (0000ms, 84034ms total)
T2310 13407:606 JLINK_IsHalted()  returns TRUE (0000ms, 84034ms total)
T2310 13407:806 JLINK_IsHalted()  returns TRUE (0001ms, 84035ms total)
T0AF4 13407:942 JLINK_ReadMem (0x400E0A08, 0x0004 Bytes, ...) -- CPU_ReadMem(4 bytes @ 0x400E0A08) - Data: 00 00 00 00  returns 0x00 (0001ms, 84035ms total)
T0AF4 13407:943 JLINK_ReadMem (0x400E0C08, 0x0004 Bytes, ...) -- CPU_ReadMem(4 bytes @ 0x400E0C08) - Data: 00 00 00 00  returns 0x00 (0002ms, 84037ms total)
T0AF4 13407:946 JLINK_ReadMem (0x400E0C08, 0x0004 Bytes, ...) -- CPU_ReadMem(4 bytes @ 0x400E0C08) - Data: 00 00 00 00  returns 0x00 (0001ms, 84038ms total)
T0AF4 13407:951 JLINK_ReadMem (0x400E0C08, 0x0004 Bytes, ...) -- CPU_ReadMem(4 bytes @ 0x400E0C08) - Data: 00 00 00 00  returns 0x00 (0001ms, 84039ms total)
T0AF4 13407:968 JLINK_ReadMem (0x400E0C08, 0x0004 Bytes, ...) -- CPU_ReadMem(4 bytes @ 0x400E0C08) - Data: 00 00 00 00  returns 0x00 (0001ms, 84040ms total)
T2310 13408:007 JLINK_IsHalted()  returns TRUE (0000ms, 84040ms total)
T0AF4 13408:033 JLINK_ReadMem (0x400E0C08, 0x0004 Bytes, ...) -- CPU_ReadMem(4 bytes @ 0x400E0C08) - Data: 00 00 00 00  returns 0x00 (0001ms, 84041ms total)
T2310 13408:207 JLINK_IsHalted()  returns TRUE (0000ms, 84041ms total)
T0AF4 13408:290 JLINK_ReadMem (0x400E0C08, 0x0004 Bytes, ...) -- CPU_ReadMem(4 bytes @ 0x400E0C08) - Data: 00 00 00 00  returns 0x00 (0001ms, 84042ms total)
T2310 13408:407 JLINK_IsHalted()  returns TRUE (0001ms, 84043ms total)
T2310 13408:608 JLINK_IsHalted()  returns TRUE (0002ms, 84044ms total)
T2310 13408:810 JLINK_IsHalted()  returns TRUE (0000ms, 84042ms total)
T2310 13409:010 JLINK_IsHalted()  returns TRUE (0001ms, 84043ms total)
T2310 13409:211 JLINK_IsHalted()  returns TRUE (0000ms, 84042ms total)
T0AF4 13409:291 JLINK_ReadMem (0x400E0C08, 0x0004 Bytes, ...) -- CPU_ReadMem(4 bytes @ 0x400E0C08) - Data: 00 00 00 00  returns 0x00 (0001ms, 84043ms total)
T0AF4 13409:292 JLINK_ReadMem (0x400E0A08, 0x0004 Bytes, ...) -- CPU_ReadMem(4 bytes @ 0x400E0A08) - Data: 00 00 00 00  returns 0x00 (0002ms, 84045ms total)
T0AF4 13409:295 JLINK_ReadMem (0x400E0A08, 0x0004 Bytes, ...) -- CPU_ReadMem(4 bytes @ 0x400E0A08) - Data: 00 00 00 00  returns 0x00 (0001ms, 84046ms total)
T0AF4 13409:300 JLINK_ReadMem (0x400E0A08, 0x0004 Bytes, ...) -- CPU_ReadMem(4 bytes @ 0x400E0A08) - Data: 00 00 00 00  returns 0x00 (0001ms, 84047ms total)
T0AF4 13409:317 JLINK_ReadMem (0x400E0A08, 0x0004 Bytes, ...) -- CPU_ReadMem(4 bytes @ 0x400E0A08) - Data: 00 00 00 00  returns 0x00 (0001ms, 84048ms total)
T0AF4 13409:382 JLINK_ReadMem (0x400E0A08, 0x0004 Bytes, ...) -- CPU_ReadMem(4 bytes @ 0x400E0A08) - Data: 00 00 00 00  returns 0x00 (0001ms, 84049ms total)
T2310 13409:411 JLINK_IsHalted()  returns TRUE (0000ms, 84049ms total)
T2310 13409:611 JLINK_IsHalted()  returns TRUE (0001ms, 84050ms total)
T0AF4 13409:639 JLINK_ReadMem (0x400E0A08, 0x0004 Bytes, ...) -- CPU_ReadMem(4 bytes @ 0x400E0A08) - Data: 00 00 00 00  returns 0x00 (0001ms, 84050ms total)
T2310 13409:812 JLINK_IsHalted()  returns TRUE (0000ms, 84050ms total)
T2310 13410:012 JLINK_IsHalted()  returns TRUE (0000ms, 84050ms total)
T2310 13410:212 JLINK_IsHalted()  returns TRUE (0001ms, 84051ms total)
T2310 13410:413 JLINK_IsHalted()  returns TRUE (0000ms, 84050ms total)
T2310 13410:613 JLINK_IsHalted()  returns TRUE (0000ms, 84050ms total)
T0AF4 13410:640 JLINK_ReadMem (0x400E0A08, 0x0004 Bytes, ...) -- CPU_ReadMem(4 bytes @ 0x400E0A08) - Data: 00 00 00 00  returns 0x00 (0001ms, 84051ms total)
T0AF4 13410:641 JLINK_ReadMem (0x400E0C08, 0x0004 Bytes, ...) -- CPU_ReadMem(4 bytes @ 0x400E0C08) - Data: 00 00 00 00  returns 0x00 (0002ms, 84053ms total)
T0AF4 13410:644 JLINK_ReadMem (0x400E0C08, 0x0004 Bytes, ...) -- CPU_ReadMem(4 bytes @ 0x400E0C08) - Data: 00 00 00 00  returns 0x00 (0001ms, 84054ms total)
T0AF4 13410:649 JLINK_ReadMem (0x400E0C08, 0x0004 Bytes, ...) -- CPU_ReadMem(4 bytes @ 0x400E0C08) - Data: 00 00 00 00  returns 0x00 (0001ms, 84055ms total)
T0AF4 13410:666 JLINK_ReadMem (0x400E0C08, 0x0004 Bytes, ...) -- CPU_ReadMem(4 bytes @ 0x400E0C08) - Data: 00 00 00 00  returns 0x00 (0001ms, 84056ms total)
T0AF4 13410:731 JLINK_ReadMem (0x400E0C08, 0x0004 Bytes, ...) -- CPU_ReadMem(4 bytes @ 0x400E0C08) - Data: 00 00 00 00  returns 0x00 (0001ms, 84057ms total)
T2310 13410:813 JLINK_IsHalted()  returns TRUE (0001ms, 84058ms total)
T0AF4 13410:988 JLINK_ReadMem (0x400E0C08, 0x0004 Bytes, ...) -- CPU_ReadMem(4 bytes @ 0x400E0C08) - Data: 00 00 00 00  returns 0x00 (0001ms, 84058ms total)
T2310 13411:014 JLINK_IsHalted()  returns TRUE (0000ms, 84058ms total)
T2310 13411:214 JLINK_IsHalted()  returns TRUE (0000ms, 84058ms total)
T2310 13411:414 JLINK_IsHalted()  returns TRUE (0001ms, 84059ms total)
T2310 13411:615 JLINK_IsHalted()  returns TRUE (0000ms, 84058ms total)
T2310 13411:815 JLINK_IsHalted()  returns TRUE (0000ms, 84058ms total)
T0AF4 13411:989 JLINK_ReadMem (0x400E0C08, 0x0004 Bytes, ...) -- CPU_ReadMem(4 bytes @ 0x400E0C08) - Data: 01 00 00 00  returns 0x00 (0001ms, 84059ms total)
T0AF4 13411:990 JLINK_ReadMem (0x400E0A08, 0x0004 Bytes, ...) -- CPU_ReadMem(4 bytes @ 0x400E0A08) - Data: 01 00 00 00  returns 0x00 (0002ms, 84061ms total)
T2310 13412:015 JLINK_IsHalted()  returns TRUE (0001ms, 84062ms total)
T0AF4 13412:017 JLINK_ResetPullsRESET(ON) (0000ms, 84061ms total)
T0AF4 13412:017 JLINK_ResetNoHalt() >0x2F8 JTAG>TotalIRLen = 4, IRPrint = 0x01 >0x30 JTAG> >0x210 JTAG> >0x70 JTAG> >0x40 JTAG> >0x40 JTAG> >0x40 JTAG> >0x48 JTAG> >0x78 JTAG> >0x40 JTAG> >0x30 JTAG> >0x40 JTAG> >0x40 JTAG> >0x30 JTAG> >0x40 JTAG> >0x48 JTAG>Found Cortex-M4 r0p1, Little endian. -- CPU_WriteMem(4 bytes @ 0xE0002000) -- CPU_ReadMem(4 bytes @ 0xE000EDF0) -- CPU_ReadMem(4 bytes @ 0xE0002000)FPUnit: 6 code (BP) slots and 2 literal slots -- CPU_ReadMem(4 bytes @ 0xE000EDFC)
 -- CPU_ReadMem(4 bytes @ 0xE0001000) -- CPU_ReadMem(4 bytes @ 0xE000ED88) -- CPU_WriteMem(4 bytes @ 0xE000ED88) -- CPU_ReadMem(4 bytes @ 0xE000ED88) -- CPU_WriteMem(4 bytes @ 0xE000ED88)CoreSight components:ROMTbl 0 @ E00FF000 -- CPU_ReadMem(16 bytes @ 0xE00FF000) -- CPU_ReadMem(16 bytes @ 0xE000EFF0) -- CPU_ReadMem(16 bytes @ 0xE000EFE0)ROMTbl 0 [0]: FFF0F000, CID: B105E00D, PID: 000BB000 SCS -- CPU_WriteMem(4 bytes @ 0xE0001000) -- CPU_ReadMem(16 bytes @ 0xE0001FF0)
 -- CPU_ReadMem(16 bytes @ 0xE0001FE0)ROMTbl 0 [1]: FFF02000, CID: B105E00D, PID: 003BB002 DWT -- CPU_ReadMem(16 bytes @ 0xE0002FF0) -- CPU_ReadMem(16 bytes @ 0xE0002FE0)ROMTbl 0 [2]: FFF03000, CID: B105E00D, PID: 002BB003 FPB -- CPU_ReadMem(16 bytes @ 0xE0000FF0) -- CPU_ReadMem(16 bytes @ 0xE0000FE0)ROMTbl 0 [3]: FFF01000, CID: B105E00D, PID: 003BB001 ITM -- CPU_ReadMem(16 bytes @ 0xE00FF010) -- CPU_ReadMem(16 bytes @ 0xE0040FF0) -- CPU_ReadMem(16 bytes @ 0xE0040FE0)
ROMTbl 0 [4]: FFF41000, CID: B105900D, PID: 000BB9A1 TPIU
                JLINK_Reset() -- CPU_ReadMem(16 bytes @ 0x20000000) -- CPU_WriteMem(16 bytes @ 0x20000000) -- CPU_ReadMem(4 bytes @ 0xE000EDFC) -- CPU_WriteMem(4 bytes @ 0xE000EDFC) -- CPU_ReadMem(4 bytes @ 0xE0001000) -- CPU_WriteMem(4 bytes @ 0xE0001004) -- CPU_WriteMem(4 bytes @ 0xE000EDFC) -- CPU_WriteMem(16 bytes @ 0x20000000) -- CPU_WriteMem(4 bytes @ 0xE0002000) -- CPU_ReadMem(4 bytes @ 0xE000EDFC) -- CPU_ReadMem(4 bytes @ 0xE0001000) (0042ms, 0042ms total)
                JLINK_Go() -- CPU_ReadMem(4 bytes @ 0xE0001000) -- CPU_WriteMem(4 bytes @ 0xE0001004) (0003ms, 0045ms total)
               (0089ms, 84150ms total)
T0AF4 13412:107 JLINK_ExecCommand("ProjectFile = T:\11.02741-0\Entregas\Aula10\14-ADC\14-ADC\jlink.config", ...)  returns 0x00 (0001ms, 84151ms total)
T0AF4 13412:137 JLINK_ExecCommand("Device = AT91SAM4SD32C", ...)Device "ATSAM4SD32C" selected.  returns 0x00 (0000ms, 84151ms total)
T0AF4 13412:137 JLINK_TIF_Select(JLINKARM_TIF_JTAG)  returns 0x00 (0000ms, 84151ms total)
T0AF4 13412:137 JLINK_GetIdData(...) ScanLen=4 NumDevices=1 aId[0]=0x4BA00477 aIrRead[0]=0 aScanLen[0]=0 aScanRead[0]=0 (0001ms, 84152ms total)
T0AF4 13412:138 JLINK_ConfigJTAG(IRPre = 0, DRPre = 0) (0000ms, 84152ms total)
T0AF4 13412:138 JLINK_SetSpeed(4000) (0000ms, 84152ms total)
T0AF4 13412:138 JLINK_ResetPullsRESET(OFF) (0000ms, 84152ms total)
T0AF4 13412:138 JLINK_Connect() >0x2F8 JTAG>TotalIRLen = 4, IRPrint = 0x01 >0x30 JTAG> >0x210 JTAG> >0x70 JTAG> >0x40 JTAG> >0x40 JTAG> >0x40 JTAG> >0x48 JTAG> >0x78 JTAG> >0x40 JTAG> >0x30 JTAG> >0x40 JTAG> >0x40 JTAG> >0x30 JTAG> >0x40 JTAG> >0x48 JTAG>Found Cortex-M4 r0p1, Little endian. -- CPU_WriteMem(4 bytes @ 0xE0002000) -- CPU_ReadMem(4 bytes @ 0xE000EDF0) -- CPU_ReadMem(4 bytes @ 0xE0002000)FPUnit: 6 code (BP) slots and 2 literal slots -- CPU_ReadMem(4 bytes @ 0xE000EDFC)
 -- CPU_ReadMem(4 bytes @ 0xE0001000) -- CPU_WriteMem(4 bytes @ 0xE0001000) -- CPU_ReadMem(4 bytes @ 0xE000ED88) -- CPU_WriteMem(4 bytes @ 0xE000ED88) -- CPU_ReadMem(4 bytes @ 0xE000ED88) -- CPU_WriteMem(4 bytes @ 0xE000ED88)CoreSight components:ROMTbl 0 @ E00FF000 -- CPU_ReadMem(16 bytes @ 0xE00FF000) -- CPU_ReadMem(16 bytes @ 0xE000EFF0) -- CPU_ReadMem(16 bytes @ 0xE000EFE0)ROMTbl 0 [0]: FFF0F000, CID: B105E00D, PID: 000BB000 SCS -- CPU_ReadMem(16 bytes @ 0xE0001FF0)
 -- CPU_ReadMem(16 bytes @ 0xE0001FE0)ROMTbl 0 [1]: FFF02000, CID: B105E00D, PID: 003BB002 DWT -- CPU_ReadMem(16 bytes @ 0xE0002FF0) -- CPU_ReadMem(16 bytes @ 0xE0002FE0)ROMTbl 0 [2]: FFF03000, CID: B105E00D, PID: 002BB003 FPB -- CPU_ReadMem(16 bytes @ 0xE0000FF0) -- CPU_ReadMem(16 bytes @ 0xE0000FE0)ROMTbl 0 [3]: FFF01000, CID: B105E00D, PID: 003BB001 ITM -- CPU_ReadMem(16 bytes @ 0xE00FF010) -- CPU_ReadMem(16 bytes @ 0xE0040FF0) -- CPU_ReadMem(16 bytes @ 0xE0040FE0)
ROMTbl 0 [4]: FFF41000, CID: B105900D, PID: 000BB9A1 TPIU  returns 0x00 (0029ms, 84181ms total)
T0AF4 13412:167 JLINK_WriteMem(0xE0001020, 0x0004 Bytes, ...) - Data: 00 00 00 00 -- CPU is running -- CPU_WriteMem(4 bytes @ 0xE0001020)  returns 0x04 (0001ms, 84182ms total)
T0AF4 13412:168 JLINK_WriteMem(0xE0001024, 0x0004 Bytes, ...) - Data: 00 00 00 00 -- CPU is running -- CPU_WriteMem(4 bytes @ 0xE0001024)  returns 0x04 (0001ms, 84183ms total)
T0AF4 13412:169 JLINK_WriteMem(0xE0001028, 0x0004 Bytes, ...) - Data: 00 00 00 00 -- CPU is running -- CPU_WriteMem(4 bytes @ 0xE0001028)  returns 0x04 (0001ms, 84184ms total)
T0AF4 13412:170 JLINK_WriteMem(0xE0001030, 0x0004 Bytes, ...) - Data: 00 00 00 00 -- CPU is running -- CPU_WriteMem(4 bytes @ 0xE0001030)  returns 0x04 (0001ms, 84185ms total)
T0AF4 13412:171 JLINK_WriteMem(0xE0001034, 0x0004 Bytes, ...) - Data: 00 00 00 00 -- CPU is running -- CPU_WriteMem(4 bytes @ 0xE0001034)  returns 0x04 (0001ms, 84186ms total)
T0AF4 13412:172 JLINK_WriteMem(0xE0001038, 0x0004 Bytes, ...) - Data: 00 00 00 00 -- CPU is running -- CPU_WriteMem(4 bytes @ 0xE0001038)  returns 0x04 (0001ms, 84187ms total)
T0AF4 13412:173 JLINK_WriteMem(0xE0001040, 0x0004 Bytes, ...) - Data: 00 00 00 00 -- CPU is running -- CPU_WriteMem(4 bytes @ 0xE0001040)  returns 0x04 (0000ms, 84187ms total)
T0AF4 13412:173 JLINK_WriteMem(0xE0001044, 0x0004 Bytes, ...) - Data: 00 00 00 00 -- CPU is running -- CPU_WriteMem(4 bytes @ 0xE0001044)  returns 0x04 (0001ms, 84188ms total)
T0AF4 13412:174 JLINK_WriteMem(0xE0001048, 0x0004 Bytes, ...) - Data: 00 00 00 00 -- CPU is running -- CPU_WriteMem(4 bytes @ 0xE0001048)  returns 0x04 (0001ms, 84189ms total)
T0AF4 13412:175 JLINK_WriteMem(0xE0001050, 0x0004 Bytes, ...) - Data: 00 00 00 00 -- CPU is running -- CPU_WriteMem(4 bytes @ 0xE0001050)  returns 0x04 (0001ms, 84190ms total)
T0AF4 13412:176 JLINK_WriteMem(0xE0001054, 0x0004 Bytes, ...) - Data: 00 00 00 00 -- CPU is running -- CPU_WriteMem(4 bytes @ 0xE0001054)  returns 0x04 (0001ms, 84191ms total)
T0AF4 13412:177 JLINK_WriteMem(0xE0001058, 0x0004 Bytes, ...) - Data: 00 00 00 00 -- CPU is running -- CPU_WriteMem(4 bytes @ 0xE0001058)  returns 0x04 (0000ms, 84191ms total)
T0AF4 13412:177 JLINK_Halt()  returns 0x00 (0005ms, 84196ms total)
T0AF4 13412:182 JLINK_WriteMem(0x400E0A04, 0x0004 Bytes, ...) - Data: 0B 01 00 5A -- CPU_WriteMem(4 bytes @ 0x400E0A04)  returns 0x04 (0001ms, 84197ms total)
T0AF4 13412:183 JLINK_ReadMem (0x400E0A08, 0x0004 Bytes, ...) -- CPU_ReadMem(4 bytes @ 0x400E0A08) - Data: 01 00 00 00  returns 0x00 (0001ms, 84198ms total)
T0AF4 13412:184 JLINK_WriteMem(0x400E0A04, 0x0004 Bytes, ...) - Data: 0C 02 00 5A -- CPU_WriteMem(4 bytes @ 0x400E0A04)  returns 0x04 (0001ms, 84199ms total)
T0AF4 13412:185 JLINK_ReadMem (0x400E0A08, 0x0004 Bytes, ...) -- CPU_ReadMem(4 bytes @ 0x400E0A08) - Data: 01 00 00 00  returns 0x00 (0001ms, 84200ms total)
T0AF4 13412:186 JLINK_Reset() -- CPU_ReadMem(16 bytes @ 0x20000000) -- CPU_WriteMem(16 bytes @ 0x20000000) -- CPU_ReadMem(4 bytes @ 0xE000EDFC) -- CPU_WriteMem(4 bytes @ 0xE000EDFC) -- CPU_ReadMem(4 bytes @ 0xE0001000) -- CPU_WriteMem(4 bytes @ 0xE000EDFC) -- CPU_WriteMem(16 bytes @ 0x20000000) -- CPU_WriteMem(4 bytes @ 0xE0002000) -- CPU_ReadMem(4 bytes @ 0xE000EDFC) -- CPU_ReadMem(4 bytes @ 0xE0001000) (0028ms, 84228ms total)
T0AF4 13412:216 JLINK_JTAG_GetDeviceID(DeviceIndex = 0)  returns 0x4BA00477 (0000ms, 84228ms total)
T0AF4 13412:216 JLINK_ReadMemU32(0x400E0740, 0x0001 Items, ...) -- CPU_ReadMem(4 bytes @ 0x400E0740) - Data: E0 0E A7 29  returns 0x01 (0001ms, 84229ms total)
T0AF4 13412:217 JLINK_ReadMemU32(0x400E0744, 0x0001 Items, ...) -- CPU_ReadMem(4 bytes @ 0x400E0744) - Data: 00 00 00 00  returns 0x01 (0001ms, 84230ms total)
T1378 13412:225 JLINK_IsHalted()  returns TRUE (0000ms, 84230ms total)
T1378 13412:225 JLINK_GetMOEs(...) -- CPU_ReadMem(4 bytes @ 0xE000ED30) -- CPU_WriteMem(4 bytes @ 0xE000ED30)  returns 0x01 (0017ms, 84247ms total)
T0AF4 13412:245 JLINK_BeginDownload(Flags = 0x00) (0000ms, 84247ms total)
T1378 13412:245 JLINK_ReadReg(R15 (PC))  returns 0xFFFFFFFE (0000ms, 84247ms total)
T0AF4 13412:245 JLINK_WriteMem(0x00400000, 0x4000 Bytes, ...) - Data: 48 3D 00 20 31 22 40 00 F9 22 40 00 F9 22 40 00 ...  returns 0x4000 (0001ms, 84248ms total)
T0AF4 13412:246 JLINK_WriteMem(0x00404000, 0x5884 Bytes, ...) - Data: 4C EA 13 33 02 D0 52 42 63 EB 43 03 94 EA 05 0F ...  returns 0x5884 (0000ms, 84248ms total)
T0AF4 13412:247 JLINK_WriteMem(0x00409884, 0x0008 Bytes, ...) - Data: D8 EF FF 7F 01 00 00 00  returns 0x08 (0000ms, 84248ms total)
T0AF4 13412:247 JLINK_WriteMem(0x0040988C, 0x0884 Bytes, ...) - Data: F0 00 00 00 40 01 00 00 00 09 3D 00 00 00 00 00 ...  returns 0x884 (0000ms, 84248ms total)
T1378 13412:445 JLINK_IsHalted()  returns TRUE (0000ms, 84248ms total)
T1D14 13412:453 JLINK_Halt()  returns 0x00 (0000ms, 84248ms total)
T1D14 13412:453 JLINK_ReadReg(R15 (PC)) -- -------------------------------------- -- Start of determining dirty areas in flash cache -- End of determining dirty areas -- Start of preparing flash programming -- Calculating RAM usage -- RAM usage = 3908 Bytes -- Preserving registers -- Preparing memory -- Determining CPU clock frequency -- CPU clock frequency: 4167 kHz -- CPU frequency = 4167 kHz -- Preparing target -- Downloading RAMCode -- Using alternate TurboMode RAMCode -- Checking target RAM
 -- Preparing RAMCode -- End of preparing flash programmingCPU is running at low speed (4167 kHz). -- CPU is running at 4167 kHz. -- Start of comparing flash -- Read back was estimated as fastest method -- Comparing range 0x400000 - 0x403FFF (32 Sectors, 16 KB), using multi-block CRC calculation -- CPU is running -- CPU_ReadMem(512 bytes @ 0x00400000) -- CPU is running -- CPU_ReadMem(512 bytes @ 0x00400200) -- CPU is running -- CPU_ReadMem(512 bytes @ 0x00400400) -- CPU is running
 -- CPU_ReadMem(512 bytes @ 0x00400600) -- CPU is running -- CPU_ReadMem(512 bytes @ 0x00400800) -- CPU is running -- CPU_ReadMem(512 bytes @ 0x00400A00) -- CPU is running -- CPU_ReadMem(512 bytes @ 0x00400C00) -- CPU is running -- CPU_ReadMem(512 bytes @ 0x00400E00) -- CPU is running -- CPU_ReadMem(512 bytes @ 0x00401000) -- CPU is running -- CPU_ReadMem(512 bytes @ 0x00401200) -- CPU is running -- CPU_ReadMem(512 bytes @ 0x00401400) -- CPU is running -- CPU_ReadMem(512 bytes @ 0x00401600)
 -- CPU is running -- CPU_ReadMem(512 bytes @ 0x00401800) -- CPU is running -- CPU_ReadMem(512 bytes @ 0x00401A00) -- CPU is running -- CPU_ReadMem(512 bytes @ 0x00401C00) -- CPU is running -- CPU_ReadMem(512 bytes @ 0x00401E00) -- CPU is running -- CPU_ReadMem(512 bytes @ 0x00402000) -- CPU is running -- CPU_ReadMem(512 bytes @ 0x00402200) -- CPU is running -- CPU_ReadMem(512 bytes @ 0x00402400) -- CPU is running -- CPU_ReadMem(512 bytes @ 0x00402600) -- CPU is running
 -- CPU_ReadMem(512 bytes @ 0x00402800) -- CPU is running -- CPU_ReadMem(512 bytes @ 0x00402A00) -- CPU is running -- CPU_ReadMem(512 bytes @ 0x00402C00) -- CPU is running -- CPU_ReadMem(512 bytes @ 0x00402E00) -- CPU is running -- CPU_ReadMem(512 bytes @ 0x00403000) -- CPU is running -- CPU_ReadMem(512 bytes @ 0x00403200) -- CPU is running -- CPU_ReadMem(512 bytes @ 0x00403400) -- CPU is running -- CPU_ReadMem(512 bytes @ 0x00403600) -- CPU is running -- CPU_ReadMem(512 bytes @ 0x00403800)
 -- CPU is running -- CPU_ReadMem(512 bytes @ 0x00403A00) -- CPU is running -- CPU_ReadMem(512 bytes @ 0x00403C00) -- CPU is running -- CPU_ReadMem(512 bytes @ 0x00403E00) -- CRC does not match for sectors 0-31 -- Comparing range 0x404000 - 0x40AFFF (7 Sectors, 28 KB), using multi-block CRC calculation -- CPU is running -- CPU_ReadMem(4096 bytes @ 0x00404000) -- CPU is running -- CPU_ReadMem(4096 bytes @ 0x00405000) -- CPU is running -- CPU_ReadMem(4096 bytes @ 0x00406000) -- CPU is running
 -- CPU_ReadMem(4096 bytes @ 0x00407000) -- CPU is running -- CPU_ReadMem(4096 bytes @ 0x00408000) -- CPU is running -- CPU_ReadMem(4096 bytes @ 0x00409000) -- CPU is running -- CPU_ReadMem(4096 bytes @ 0x0040A000) -- CRC does not match for sectors 0-6 -- End of comparing flash -- Start of erasing sectors -- End of erasing sectors -- Start of flash programming -- Programming range 0x00400000 - 0x00403FFF (032 Sectors, 16 KB) -- Programming range 0x00404000 - 0x00407FFF (004 Sectors, 16 KB)
 -- Programming range 0x00408000 - 0x0040AFFF (003 Sectors, 12 KB) -- End of flash programming -- Flash programming performed for 2 ranges (45056 bytes) -- 0x400000 - 0x403FFF (032 Sectors, 16 KB) -- 0x404000 - 0x40AFFF (007 Sectors, 28 KB) -- Start of verifying flash -- Checksum calculation was estimated as fastest method -- Checksum calculation was estimated as fastest method -- End of verifying flash -- Start of restoring -- Restore RAMCode -- Restore content of target memory -- Restore target
 -- Restore memory -- Restore content of registers -- End of restoring -- Total time needed: 0.942s (Prepare: 0.089s, Compare: 0.327s, Erase: 0.000s, Program: 0.489s, Verify: 0.028s, Restore: 0.006s)  returns 0xFFFFFFFE (0946ms, 85194ms total)
T1378 13413:399 JLINK_IsHalted()  returns TRUE (0001ms, 85195ms total)
T1D14 13413:401 JLINK_ReadReg(R13 (SP))  returns 0xFFFFFFFC (0000ms, 85195ms total)
T1D14 13413:430 JLINK_ReadReg(R0)  returns 0x400E1400 (0000ms, 85195ms total)
T1D14 13413:430 JLINK_ReadReg(R1)  returns 0x40C00000 (0000ms, 85195ms total)
T1D14 13413:430 JLINK_ReadReg(R2)  returns 0xA5000005 (0000ms, 85195ms total)
T1D14 13413:430 JLINK_ReadReg(R3)  returns 0x00000000 (0000ms, 85195ms total)
T1D14 13413:430 JLINK_ReadReg(R4)  returns 0x00403F85 (0000ms, 85195ms total)
T1D14 13413:430 JLINK_ReadReg(R5)  returns 0x0000000D (0000ms, 85195ms total)
T1D14 13413:430 JLINK_ReadReg(R6)  returns 0x00404CD5 (0000ms, 85195ms total)
T1D14 13413:430 JLINK_ReadReg(R7)  returns 0x20003D28 (0000ms, 85195ms total)
T1D14 13413:430 JLINK_ReadReg(R8)  returns 0x00000000 (0000ms, 85195ms total)
T1D14 13413:430 JLINK_ReadReg(R9)  returns 0x404E0000 (0000ms, 85195ms total)
T1D14 13413:430 JLINK_ReadReg(R10)  returns 0xF8475800 (0000ms, 85195ms total)
T1D14 13413:430 JLINK_ReadReg(R11)  returns 0x0000000D (0000ms, 85195ms total)
T1D14 13413:430 JLINK_ReadReg(R12)  returns 0x00000000 (0000ms, 85195ms total)
T1D14 13413:430 JLINK_ReadReg(R13 (SP))  returns 0xFFFFFFFC (0000ms, 85195ms total)
T1D14 13413:430 JLINK_ReadReg(R14)  returns 0xFFFFFFFF (0000ms, 85195ms total)
T1D14 13413:430 JLINK_ReadReg(R15 (PC))  returns 0xFFFFFFFE (0000ms, 85195ms total)
T1D14 13413:430 JLINK_ReadReg(XPSR)  returns 0x01000000 (0000ms, 85195ms total)
T1D14 13413:430 JLINK_ReadReg(MSP)  returns 0xFFFFFFFC (0000ms, 85195ms total)
T1D14 13413:430 JLINK_ReadReg(PSP)  returns 0x55F3D124 (0001ms, 85196ms total)
T1D14 13413:431 JLINK_ReadReg(PRIMASK)  returns 0x00000000 (0000ms, 85196ms total)
T1D14 13413:431 JLINK_ReadReg(BASEPRI)  returns 0x00000000 (0000ms, 85196ms total)
T1D14 13413:431 JLINK_ReadReg(FAULTMASK)  returns 0x00000000 (0000ms, 85196ms total)
T1D14 13413:431 JLINK_ReadReg(CONTROL)  returns 0x00000000 (0000ms, 85196ms total)
T1D14 13413:473 JLINK_EndDownload()  returns 0x00 (0000ms, 85196ms total)
T1D14 13413:473 JLINK_Reset() -- CPU_ReadMem(16 bytes @ 0x20000000) -- CPU_WriteMem(16 bytes @ 0x20000000) -- CPU_ReadMem(4 bytes @ 0xE000EDFC) -- CPU_WriteMem(4 bytes @ 0xE000EDFC) -- CPU_ReadMem(4 bytes @ 0xE0001000) -- CPU_WriteMem(4 bytes @ 0xE000EDFC) -- CPU_WriteMem(16 bytes @ 0x20000000) -- CPU_WriteMem(4 bytes @ 0xE0002000) -- CPU_ReadMem(4 bytes @ 0xE000EDFC) -- CPU_ReadMem(4 bytes @ 0xE0001000) (0027ms, 85223ms total)
T1378 13413:500 JLINK_IsHalted()  returns TRUE (0000ms, 85223ms total)
T1378 13413:500 JLINK_GetMOEs(...) -- CPU_ReadMem(4 bytes @ 0xE000ED30) -- CPU_WriteMem(4 bytes @ 0xE000ED30)  returns 0x01 (0002ms, 85225ms total)
T1378 13413:502 JLINK_ReadReg(R15 (PC))  returns 0x00402230 (0000ms, 85225ms total)
T1D14 13413:510 JLINK_ReadReg(R15 (PC))  returns 0x00402230 (0000ms, 85225ms total)
T1D14 13413:510 JLINK_ReadReg(R13 (SP))  returns 0x20003D48 (0000ms, 85225ms total)
T1D14 13413:522 JLINK_ReadMemHW(0x00402230, 0x0004 Bytes, ...) -- CPU_ReadMem(4 bytes @ 0x00402230) - Data: 80 B5 84 B0  returns 0x00 (0001ms, 85226ms total)
T1D14 13413:625 JLINK_ReadMemHW(0x00402736, 0x0002 Bytes, ...) -- CPU_ReadMem(2 bytes @ 0x00402736) - Data: 1E 48  returns 0x00 (0001ms, 85227ms total)
T1D14 13413:626 JLINK_ReadMemHW(0x00402738, 0x0002 Bytes, ...) -- CPU_ReadMem(2 bytes @ 0x00402738) - Data: 1E 4B  returns 0x00 (0001ms, 85228ms total)
T1D14 13413:628 JLINK_ReadMemHW(0x00402784, 0x0002 Bytes, ...) -- CPU_ReadMem(2 bytes @ 0x00402784) - Data: 11 4B  returns 0x00 (0001ms, 85229ms total)
T0AF4 13413:630 JLINK_GetNumBPUnits(Type = 0xFFFFFF02)  returns 0x06 (0000ms, 85229ms total)
T0AF4 13413:630 JLINK_SetBPEx(Addr = 0x00402784, Type = 0xFFFFFFF2)  returns 0x00000001 (0000ms, 85229ms total)
T0AF4 13413:630 JLINK_GetBPInfo(BPHandle = 1)  returns 0x00 (0000ms, 85229ms total)
T1D14 13413:659 JLINK_ReadMemHW(0x00402A70, 0x0002 Bytes, ...) -- CPU_ReadMem(2 bytes @ 0x00402A70) - Data: 3C 23  returns 0x00 (0001ms, 85230ms total)
T1D14 13413:660 JLINK_ReadMemHW(0x00402B18, 0x0002 Bytes, ...) -- CPU_ReadMem(2 bytes @ 0x00402B18) - Data: F8 68  returns 0x00 (0001ms, 85231ms total)
T0AF4 13413:662 JLINK_SetBPEx(Addr = 0x00402B18, Type = 0xFFFFFFF2)  returns 0x00000002 (0000ms, 85231ms total)
T0AF4 13413:662 JLINK_GetBPInfo(BPHandle = 2)  returns 0x00 (0000ms, 85231ms total)
T1D14 13413:692 JLINK_ReadMemHW(0x00402BB0, 0x0001 Bytes, ...) -- CPU_ReadMem(1 bytes @ 0x00402BB0) - Data: 80  returns 0x00 (0001ms, 85232ms total)
T1378 13413:702 JLINK_IsHalted()  returns TRUE (0000ms, 85232ms total)
T1D14 13413:723 JLINK_ReadReg(R15 (PC))  returns 0x00402230 (0000ms, 85232ms total)
T1D14 13413:723 JLINK_SetBPEx(Addr = 0x00402BB0, Type = 0xFFFFFF02)  returns 0x00000003 (0000ms, 85232ms total)
T1D14 13413:723 JLINK_GetBPInfo(BPHandle = 3)  returns 0x00 (0002ms, 85234ms total)
T1D14 13413:725 JLINK_Go() -- CPU_ReadMem(4 bytes @ 0xE0001000) -- CPU_WriteMem(4 bytes @ 0xE0002008) -- CPU_WriteMem(4 bytes @ 0xE000200C) -- CPU_WriteMem(4 bytes @ 0xE0002010) -- CPU_WriteMem(4 bytes @ 0xE0002014) -- CPU_WriteMem(4 bytes @ 0xE0002018) -- CPU_WriteMem(4 bytes @ 0xE000201C) -- CPU_WriteMem(4 bytes @ 0xE0001004) (0005ms, 85239ms total)
T1378 13413:730 JLINK_IsHalted()  returns FALSE (0001ms, 85240ms total)
T1378 13413:751 JLINK_IsHalted()  returns TRUE (0004ms, 85243ms total)
T1378 13413:755 JLINK_GetMOEs(...) -- CPU_ReadMem(4 bytes @ 0xE000ED30) -- CPU_WriteMem(4 bytes @ 0xE000ED30)  returns 0x01 (0001ms, 85240ms total)
T1378 13413:756 JLINK_ReadReg(R15 (PC))  returns 0x00402BB0 (0000ms, 85240ms total)
T1378 13413:756 JLINK_GetBPInfo(BPHandle = 3)  returns 0x00 (0000ms, 85240ms total)
T1378 13413:756 JLINK_ClrBPEx(BPHandle = 0x00000003)  returns 0x00 (0000ms, 85240ms total)
T1D14 13413:760 JLINK_ReadReg(R15 (PC))  returns 0x00402BB0 (0000ms, 85240ms total)
T1D14 13413:760 JLINK_ReadReg(R13 (SP))  returns 0x20003D30 (0000ms, 85240ms total)
T1D14 13413:760 JLINK_ReadMemHW(0x00402BB0, 0x0004 Bytes, ...) -- CPU_ReadMem(4 bytes @ 0x00402BB0) - Data: 80 B5 00 AF  returns 0x00 (0001ms, 85241ms total)
T1D14 13413:772 JLINK_ReadReg(R15 (PC))  returns 0x00402BB0 (0000ms, 85241ms total)
T1D14 13413:772 JLINK_Go() -- CPU_ReadMem(4 bytes @ 0xE0001000) -- CPU_WriteMem(4 bytes @ 0xE0002010) (0003ms, 85244ms total)
T1378 13413:775 JLINK_IsHalted()  returns FALSE (0001ms, 85245ms total)
T1378 13413:816 JLINK_IsHalted()  returns FALSE (0000ms, 85244ms total)
T1378 13413:976 JLINK_IsHalted()  returns TRUE (0004ms, 85248ms total)
T1378 13413:980 JLINK_GetMOEs(...) -- CPU_ReadMem(4 bytes @ 0xE000ED30) -- CPU_WriteMem(4 bytes @ 0xE000ED30)  returns 0x01 (0002ms, 85246ms total)
T1378 13413:982 JLINK_ReadReg(R15 (PC))  returns 0x00402784 (0000ms, 85246ms total)
T1D14 13413:985 JLINK_ReadReg(R15 (PC))  returns 0x00402784 (0000ms, 85247ms total)
T1D14 13413:985 JLINK_ReadReg(R13 (SP))  returns 0x20003CD8 (0000ms, 85247ms total)
T1D14 13413:986 JLINK_ReadMemHW(0x00402784, 0x0004 Bytes, ...) -- CPU_ReadMem(4 bytes @ 0x00402784) - Data: 11 4B 1A 68  returns 0x00 (0001ms, 85248ms total)
T1D14 13413:987 JLINK_ReadReg(R0)  returns 0x40533333 (0000ms, 85248ms total)
T1D14 13413:988 JLINK_ReadReg(R1)  returns 0x400A6666 (0000ms, 85248ms total)
T1D14 13413:988 JLINK_ReadReg(R2)  returns 0x40533333 (0000ms, 85248ms total)
T1D14 13413:988 JLINK_ReadReg(R3)  returns 0x20000D28 (0000ms, 85248ms total)
T1D14 13413:988 JLINK_ReadReg(R4)  returns 0x004042ED (0000ms, 85248ms total)
T1D14 13413:988 JLINK_ReadReg(R5)  returns 0x0000000D (0000ms, 85248ms total)
T1D14 13413:988 JLINK_ReadReg(R6)  returns 0x00404CD5 (0000ms, 85248ms total)
T1D14 13413:988 JLINK_ReadReg(R7)  returns 0x20003CD8 (0000ms, 85248ms total)
T1D14 13413:988 JLINK_ReadReg(R8)  returns 0x00000000 (0000ms, 85248ms total)
T1D14 13413:988 JLINK_ReadReg(R9)  returns 0x404E0000 (0000ms, 85248ms total)
T1D14 13413:988 JLINK_ReadReg(R10)  returns 0xF8475800 (0000ms, 85248ms total)
T1D14 13413:988 JLINK_ReadReg(R11)  returns 0x0000000D (0001ms, 85249ms total)
T1D14 13413:989 JLINK_ReadReg(R12)  returns 0x00000000 (0000ms, 85249ms total)
T1D14 13413:989 JLINK_ReadReg(R13 (SP))  returns 0x20003CD8 (0000ms, 85249ms total)
T1D14 13413:989 JLINK_ReadReg(R14)  returns 0x0040277F (0000ms, 85249ms total)
T1D14 13413:989 JLINK_ReadReg(R15 (PC))  returns 0x00402784 (0000ms, 85249ms total)
T1D14 13413:989 JLINK_ReadReg(XPSR)  returns 0x9100002D (0000ms, 85249ms total)
T1D14 13413:989 JLINK_ReadReg(MSP)  returns 0x20003CD8 (0000ms, 85249ms total)
T1D14 13413:989 JLINK_ReadReg(PSP)  returns 0x55F3D124 (0000ms, 85249ms total)
T1D14 13413:989 JLINK_ReadReg(PRIMASK)  returns 0x00000000 (0000ms, 85249ms total)
T1D14 13413:989 JLINK_ReadReg(BASEPRI)  returns 0x00000000 (0001ms, 85250ms total)
T1D14 13413:990 JLINK_ReadReg(FAULTMASK)  returns 0x00000000 (0000ms, 85250ms total)
T1D14 13413:990 JLINK_ReadReg(CONTROL)  returns 0x00000000 (0000ms, 85250ms total)
T1D14 13414:025 JLINK_ReadMem (0x20003CEC, 0x0004 Bytes, ...) -- CPU_ReadMem(64 bytes @ 0x20003CC0) -- Updating C cache (64 bytes @ 0x20003CC0) -- Read from C cache (4 bytes @ 0x20003CEC) - Data: F9 FF FF FF  returns 0x00 (0002ms, 85252ms total)
T1D14 13414:027 JLINK_ReadMem (0x20003CEC, 0x0004 Bytes, ...) -- Read from C cache (4 bytes @ 0x20003CEC) - Data: F9 FF FF FF  returns 0x00 (0000ms, 85252ms total)
T1D14 13414:028 JLINK_ReadMem (0x20003D0C, 0x0004 Bytes, ...) -- CPU_ReadMem(64 bytes @ 0x20003D00) -- Updating C cache (64 bytes @ 0x20003D00) -- Read from C cache (4 bytes @ 0x20003D0C) - Data: 00 00 00 81  returns 0x00 (0001ms, 85253ms total)
T1D14 13414:030 JLINK_ReadMem (0x20003D08, 0x0004 Bytes, ...) -- Read from C cache (4 bytes @ 0x20003D08) - Data: 9E 10 40 00  returns 0x00 (0000ms, 85253ms total)
T1D14 13414:046 JLINK_ReadMemHW(0x0040109E, 0x0004 Bytes, ...) -- CPU_ReadMem(4 bytes @ 0x0040109E) - Data: 7A 68 41 F8  returns 0x00 (0001ms, 85254ms total)
T1D14 13414:048 JLINK_ReadMem (0x20003CE8, 0x0004 Bytes, ...) -- Read from C cache (4 bytes @ 0x20003CE8) - Data: 10 3D 00 20  returns 0x00 (0000ms, 85254ms total)
T1D14 13414:048 JLINK_ReadMem (0x20003D04, 0x0004 Bytes, ...) -- Read from C cache (4 bytes @ 0x20003D04) - Data: D3 2B 40 00  returns 0x00 (0001ms, 85255ms total)
T1D14 13414:049 JLINK_ReadMem (0x20003D04, 0x0004 Bytes, ...) -- Read from C cache (4 bytes @ 0x20003D04) - Data: D3 2B 40 00  returns 0x00 (0000ms, 85255ms total)
T1D14 13414:050 JLINK_ReadMemHW(0x00402BD2, 0x0004 Bytes, ...) -- CPU_ReadMem(4 bytes @ 0x00402BD2) - Data: 0A 20 14 21  returns 0x00 (0001ms, 85256ms total)
T1D14 13414:051 JLINK_ReadMem (0x20003D24, 0x0004 Bytes, ...) -- Read from C cache (4 bytes @ 0x20003D24) - Data: 28 3D 00 20  returns 0x00 (0000ms, 85256ms total)
T1D14 13414:062 JLINK_ReadMem (0x20003CE8, 0x0004 Bytes, ...) -- Read from C cache (4 bytes @ 0x20003CE8) - Data: 10 3D 00 20  returns 0x00 (0000ms, 85256ms total)
T1D14 13414:063 JLINK_ReadMem (0x20003D14, 0x0004 Bytes, ...) -- Read from C cache (4 bytes @ 0x20003D14) - Data: 00 00 00 00  returns 0x00 (0000ms, 85256ms total)
T0AF4 13414:140 JLINK_ReadMem (0x40000000, 0x0104 Bytes, ...) -- CPU_ReadMem(260 bytes @ 0x40000000) - Data: 00 00 00 00 00 00 00 00 00 00 00 00 00 00 00 00 ...  returns 0x00 (0002ms, 85258ms total)
T0AF4 13414:148 JLINK_ReadMem (0x40000000, 0x0104 Bytes, ...) -- CPU_ReadMem(260 bytes @ 0x40000000) - Data: 00 00 00 00 00 00 00 00 00 00 00 00 00 00 00 00 ...  returns 0x00 (0002ms, 85260ms total)
T1378 13414:183 JLINK_IsHalted()  returns TRUE (0000ms, 85260ms total)
T0AF4 13414:231 JLINK_GetDebugInfo(0x100) -- Value=0xE00FF003  returns 0x00 (0000ms, 85260ms total)
T0AF4 13414:231 JLINK_ReadMem (0xE00FFFF0, 0x0010 Bytes, ...) -- CPU_ReadMem(16 bytes @ 0xE00FFFF0) - Data: 0D 00 00 00 10 00 00 00 05 00 00 00 B1 00 00 00  returns 0x00 (0001ms, 85261ms total)
T0AF4 13414:232 JLINK_ReadMem (0xE00FFFD0, 0x0020 Bytes, ...) -- CPU_ReadMem(32 bytes @ 0xE00FFFD0) - Data: 04 00 00 00 00 00 00 00 00 00 00 00 00 00 00 00 ...  returns 0x00 (0001ms, 85262ms total)
T0AF4 13414:233 JLINK_ReadMemU32(0xE00FF000, 0x0001 Items, ...) -- CPU_ReadMem(4 bytes @ 0xE00FF000) - Data: 03 F0 F0 FF  returns 0x01 (0001ms, 85263ms total)
T0AF4 13414:234 JLINK_ReadMem (0xE000EFF0, 0x0010 Bytes, ...) -- CPU_ReadMem(16 bytes @ 0xE000EFF0) - Data: 0D 00 00 00 E0 00 00 00 05 00 00 00 B1 00 00 00  returns 0x00 (0001ms, 85264ms total)
T0AF4 13414:235 JLINK_ReadMem (0xE000EFD0, 0x0020 Bytes, ...) -- CPU_ReadMem(32 bytes @ 0xE000EFD0) - Data: 04 00 00 00 00 00 00 00 00 00 00 00 00 00 00 00 ...  returns 0x00 (0001ms, 85265ms total)
